
T1700 000:629 SEGGER J-Link V4.90 Log File (0001ms, 0278ms total)
T1700 000:629 DLL Compiled: Jul 28 2014 10:35:20 (0001ms, 0278ms total)
T1700 000:629 Logging started @ 2021-05-28 17:20 (0001ms, 0278ms total)
T1700 000:630 JLINK_SetWarnOutHandler(...) (0000ms, 0278ms total)
T1700 000:631 JLINK_OpenEx(...)
Firmware: J-Link V9 compiled Dec 13 2019 11:14:50
Hardware: V9.30
S/N: 59300616
Feature(s): RDI, FlashBP, FlashDL, JFlash, GDB  returns O.K. (0277ms, 0556ms total)
T1700 000:908 JLINK_SetErrorOutHandler(...) (0000ms, 0556ms total)
T1700 000:908 JLINK_ExecCommand("ProjectFile = "C:\Users\201614040114\Desktop\下位机程序\恒电位仪（STM32F103C8T6）循环伏安法\USER\JLinkSettings.ini"", ...)  returns 0x00 (0002ms, 0558ms total)
T1700 000:926 JLINK_ExecCommand("Device = STM32F103C8", ...)Device "STM32F103C8" selected (64 KB flash, 20 KB RAM).  returns 0x00 (0028ms, 0586ms total)
T1700 000:954 JLINK_ExecCommand("DisableConnectionTimeout", ...)  returns 0x01 (0000ms, 0586ms total)
T1700 000:954 JLINK_GetHardwareVersion()  returns 0x16B48 (0000ms, 0586ms total)
T1700 000:954 JLINK_GetDLLVersion()  returns 49000 (0001ms, 0587ms total)
T1700 000:955 JLINK_GetFirmwareString(...) (0000ms, 0587ms total)
T1700 001:012 JLINK_GetDLLVersion()  returns 49000 (0000ms, 0587ms total)
T1700 001:012 JLINK_GetCompileDateTime() (0000ms, 0587ms total)
T1700 001:018 JLINK_GetFirmwareString(...) (0000ms, 0587ms total)
T1700 001:023 JLINK_GetHardwareVersion()  returns 0x16B48 (0000ms, 0587ms total)
T1700 001:049 JLINK_TIF_Select(JLINKARM_TIF_SWD)  returns 0x00 (0001ms, 0588ms total)
T1700 001:051 JLINK_SetSpeed(50000) (0000ms, 0588ms total)
T1700 001:051 JLINK_GetId() >0x108 TIF>Found SWD-DP with ID 0x1BA01477 >0x0D TIF> >0x28 TIF> >0x0D TIF> >0x28 TIF> >0x0D TIF> >0x21 TIF> >0x0D TIF> >0x28 TIF> >0x0D TIF> >0x28 TIF> >0x0D TIF> >0x28 TIF> >0x0D TIF> >0x21 TIF> >0x0D TIF> >0x21 TIF> >0x0D TIF> >0x28 TIF> >0x0D TIF> >0x21 TIF> >0x0D TIF> >0x21 TIF> >0x108 TIF>Found SWD-DP with ID 0x1BA01477 >0x0D TIF> >0x21 TIF> >0x0D TIF> >0x28 TIF> >0x0D TIF> >0x28 TIF> >0x0D TIF> >0x21 TIF> >0x0D TIF> >0x28 TIF> >0x0D TIF> >0x21 TIF> >0x0D TIF> >0x21 TIF>
 >0x0D TIF> >0x21 TIF> >0x0D TIF> >0x21 TIF> >0x0D TIF> >0x28 TIF> >0x0D TIF> >0x28 TIF> >0x0D TIF> >0x21 TIF> >0x0D TIF> >0x28 TIF> >0x0D TIF> >0x28 TIF> >0x0D TIF> >0x28 TIF> >0x0D TIF> >0x21 TIF> >0x0D TIF> >0x21 TIF> >0x0D TIF> >0x28 TIF> >0x0D TIF> >0x21 TIF> >0x0D TIF> >0x21 TIF>Found Cortex-M3 r1p1, Little endian. -- CPU_WriteMem(4 bytes @ 0xE0002000) -- CPU_ReadMem(4 bytes @ 0xE000EDF0) -- CPU_ReadMem(4 bytes @ 0xE0002000)FPUnit: 6 code (BP) slots and 2 literal slots
 -- CPU_ReadMem(4 bytes @ 0xE000EDFC) -- CPU_ReadMem(4 bytes @ 0xE0001000) -- CPU_WriteMem(4 bytes @ 0xE0001000) -- CPU_ReadMem(4 bytes @ 0xE00FF010)TPIU fitted. -- CPU_ReadMem(4 bytes @ 0xE00FF014) -- CPU_ReadMem(4 bytes @ 0xE00FF018) >0x0D TIF> >0x21 TIF>  returns 0x1BA01477 (0063ms, 0651ms total)
T1700 001:114 JLINK_GetDLLVersion()  returns 49000 (0000ms, 0651ms total)
T1700 001:114 JLINK_CORE_GetFound()  returns 0x30000FF (0000ms, 0651ms total)
T1700 001:121 JLINK_ReadMem (0xE00FF000, 0x0020 Bytes, ...) -- CPU is running -- CPU_ReadMem(32 bytes @ 0xE00FF000) - Data: 03 F0 F0 FF 03 20 F0 FF 03 30 F0 FF 03 10 F0 FF ...  returns 0x00 (0001ms, 0652ms total)
T1700 001:122 JLINK_ReadMem (0xE000EFF0, 0x0010 Bytes, ...) -- CPU is running -- CPU_ReadMem(16 bytes @ 0xE000EFF0) - Data: 0D 00 00 00 E0 00 00 00 05 00 00 00 B1 00 00 00  returns 0x00 (0001ms, 0653ms total)
T1700 001:123 JLINK_ReadMem (0xE000EFD0, 0x0020 Bytes, ...) -- CPU is running -- CPU_ReadMem(32 bytes @ 0xE000EFD0) - Data: 04 00 00 00 00 00 00 00 00 00 00 00 00 00 00 00 ...  returns 0x00 (0000ms, 0653ms total)
T1700 001:123 JLINK_ReadMem (0xE0001FF0, 0x0010 Bytes, ...) -- CPU is running -- CPU_ReadMem(16 bytes @ 0xE0001FF0) - Data: 0D 00 00 00 E0 00 00 00 05 00 00 00 B1 00 00 00  returns 0x00 (0001ms, 0654ms total)
T1700 001:124 JLINK_ReadMem (0xE0001FD0, 0x0020 Bytes, ...) -- CPU is running -- CPU_ReadMem(32 bytes @ 0xE0001FD0) - Data: 04 00 00 00 00 00 00 00 00 00 00 00 00 00 00 00 ...  returns 0x00 (0001ms, 0655ms total)
T1700 001:125 JLINK_ReadMem (0xE0002FF0, 0x0010 Bytes, ...) -- CPU is running -- CPU_ReadMem(16 bytes @ 0xE0002FF0) - Data: 0D 00 00 00 E0 00 00 00 05 00 00 00 B1 00 00 00  returns 0x00 (0000ms, 0655ms total)
T1700 001:125 JLINK_ReadMem (0xE0002FD0, 0x0020 Bytes, ...) -- CPU is running -- CPU_ReadMem(32 bytes @ 0xE0002FD0) - Data: 04 00 00 00 00 00 00 00 00 00 00 00 00 00 00 00 ...  returns 0x00 (0001ms, 0656ms total)
T1700 001:126 JLINK_ReadMem (0xE0000FF0, 0x0010 Bytes, ...) -- CPU is running -- CPU_ReadMem(16 bytes @ 0xE0000FF0) - Data: 0D 00 00 00 E0 00 00 00 05 00 00 00 B1 00 00 00  returns 0x00 (0000ms, 0656ms total)
T1700 001:126 JLINK_ReadMem (0xE0000FD0, 0x0020 Bytes, ...) -- CPU is running -- CPU_ReadMem(32 bytes @ 0xE0000FD0) - Data: 04 00 00 00 00 00 00 00 00 00 00 00 00 00 00 00 ...  returns 0x00 (0001ms, 0657ms total)
T1700 001:127 JLINK_ReadMem (0xE0040FF0, 0x0010 Bytes, ...) -- CPU is running -- CPU_ReadMem(16 bytes @ 0xE0040FF0) - Data: 0D 00 00 00 90 00 00 00 05 00 00 00 B1 00 00 00  returns 0x00 (0000ms, 0657ms total)
T1700 001:127 JLINK_ReadMem (0xE0040FD0, 0x0020 Bytes, ...) -- CPU is running -- CPU_ReadMem(32 bytes @ 0xE0040FD0) - Data: 04 00 00 00 00 00 00 00 00 00 00 00 00 00 00 00 ...  returns 0x00 (0001ms, 0658ms total)
T1700 001:128 JLINK_ReadMemU32(0xE000ED00, 0x0001 Items, ...) -- CPU is running -- CPU_ReadMem(4 bytes @ 0xE000ED00) - Data: 31 C2 1F 41  returns 0x01 (0001ms, 0659ms total)
T1700 001:129 JLINK_SetResetType(JLINKARM_RESET_TYPE_NORMAL)  returns JLINKARM_RESET_TYPE_NORMAL (0000ms, 0659ms total)
T1700 001:129 JLINK_Reset() -- CPU is running -- CPU_WriteMem(4 bytes @ 0xE000EDF0) -- CPU is running -- CPU_WriteMem(4 bytes @ 0xE000EDFC) >0x35 TIF> -- CPU is running -- CPU_WriteMem(4 bytes @ 0xE000ED0C) -- CPU is running -- CPU_ReadMem(4 bytes @ 0xE000EDF0) -- CPU is running -- CPU_ReadMem(4 bytes @ 0xE000EDF0) -- CPU is running -- CPU_WriteMem(4 bytes @ 0xE000EDF0) -- CPU is running -- CPU_WriteMem(4 bytes @ 0xE000EDFC) -- CPU is running -- CPU_ReadMem(4 bytes @ 0xE000EDF0)
 -- CPU_WriteMem(4 bytes @ 0xE0002000) -- CPU_ReadMem(4 bytes @ 0xE000EDFC) -- CPU_ReadMem(4 bytes @ 0xE0001000) (0016ms, 0675ms total)
T1700 001:145 JLINK_Halt()  returns 0x00 (0000ms, 0675ms total)
T1700 001:145 JLINK_IsHalted()  returns TRUE (0000ms, 0675ms total)
T1700 001:145 JLINK_ReadMemU32(0xE000EDF0, 0x0001 Items, ...) -- CPU_ReadMem(4 bytes @ 0xE000EDF0) - Data: 03 00 03 00  returns 0x01 (0001ms, 0676ms total)
T1700 001:146 JLINK_WriteU32(0xE000EDF0, 0xA05F0003) -- CPU_WriteMem(4 bytes @ 0xE000EDF0)  returns 0x00 (0000ms, 0676ms total)
T1700 001:146 JLINK_WriteU32(0xE000EDFC, 0x01000000) -- CPU_WriteMem(4 bytes @ 0xE000EDFC)  returns 0x00 (0001ms, 0677ms total)
T1700 001:173 JLINK_GetHWStatus(...)  returns 0x00 (0001ms, 0678ms total)
T1700 001:195 JLINK_GetNumBPUnits(Type = 0xFFFFFF00)  returns 0x06 (0000ms, 0678ms total)
T1700 001:195 JLINK_GetNumBPUnits(Type = 0xF0)  returns 0x2000 (0000ms, 0678ms total)
T1700 001:195 JLINK_GetNumWPUnits()  returns 0x04 (0000ms, 0678ms total)
T1700 001:210 JLINK_GetSpeed()  returns 0x2EE0 (0000ms, 0678ms total)
T1700 001:220 JLINK_ReadMemU32(0xE000E004, 0x0001 Items, ...) -- CPU_ReadMem(4 bytes @ 0xE000E004) - Data: 01 00 00 00  returns 0x01 (0001ms, 0679ms total)
T1700 001:221 JLINK_ReadMemU32(0xE000E004, 0x0001 Items, ...) -- CPU_ReadMem(4 bytes @ 0xE000E004) - Data: 01 00 00 00  returns 0x01 (0001ms, 0680ms total)
T1700 001:222 JLINK_WriteMem(0xE0001000, 0x001C Bytes, ...) - Data: 01 00 00 00 00 00 00 00 00 00 00 00 00 00 00 00 ... -- CPU_WriteMem(28 bytes @ 0xE0001000)  returns 0x1C (0000ms, 0680ms total)
T1700 001:222 JLINK_ReadMem (0xE0001000, 0x001C Bytes, ...) -- CPU_ReadMem(28 bytes @ 0xE0001000) - Data: 01 00 00 40 00 00 00 00 00 00 00 00 00 00 00 00 ...  returns 0x00 (0000ms, 0680ms total)
T1700 001:222 JLINK_Halt()  returns 0x00 (0000ms, 0680ms total)
T1700 001:222 JLINK_IsHalted()  returns TRUE (0001ms, 0681ms total)
T1700 001:230 JLINK_WriteMem(0x20000000, 0x0164 Bytes, ...) - Data: 00 BE 0A E0 0D 78 2D 06 68 40 08 24 40 00 00 D3 ... -- CPU_WriteMem(356 bytes @ 0x20000000)  returns 0x164 (0002ms, 0682ms total)
T1700 001:232 JLINK_WriteReg(R0, 0x08000000)  returns 0x00 (0000ms, 0682ms total)
T1700 001:232 JLINK_WriteReg(R1, 0x00B71B00)  returns 0x00 (0000ms, 0682ms total)
T1700 001:232 JLINK_WriteReg(R2, 0x00000001)  returns 0x00 (0000ms, 0682ms total)
T1700 001:232 JLINK_WriteReg(R3, 0x00000000)  returns 0x00 (0000ms, 0682ms total)
T1700 001:232 JLINK_WriteReg(R4, 0x00000000)  returns 0x00 (0000ms, 0682ms total)
T1700 001:232 JLINK_WriteReg(R5, 0x00000000)  returns 0x00 (0000ms, 0682ms total)
T1700 001:232 JLINK_WriteReg(R6, 0x00000000)  returns 0x00 (0000ms, 0682ms total)
T1700 001:232 JLINK_WriteReg(R7, 0x00000000)  returns 0x00 (0001ms, 0683ms total)
T1700 001:233 JLINK_WriteReg(R8, 0x00000000)  returns 0x00 (0000ms, 0683ms total)
T1700 001:233 JLINK_WriteReg(R9, 0x20000160)  returns 0x00 (0000ms, 0683ms total)
T1700 001:233 JLINK_WriteReg(R10, 0x00000000)  returns 0x00 (0000ms, 0683ms total)
T1700 001:233 JLINK_WriteReg(R11, 0x00000000)  returns 0x00 (0000ms, 0683ms total)
T1700 001:233 JLINK_WriteReg(R12, 0x00000000)  returns 0x00 (0000ms, 0683ms total)
T1700 001:233 JLINK_WriteReg(R13 (SP), 0x20000800)  returns 0x00 (0000ms, 0683ms total)
T1700 001:233 JLINK_WriteReg(R14, 0x20000001)  returns 0x00 (0000ms, 0683ms total)
T1700 001:233 JLINK_WriteReg(R15 (PC), 0x20000038)  returns 0x00 (0000ms, 0683ms total)
T1700 001:233 JLINK_WriteReg(XPSR, 0x01000000)  returns 0x00 (0000ms, 0683ms total)
T1700 001:233 JLINK_WriteReg(MSP, 0x20000800)  returns 0x00 (0001ms, 0684ms total)
T1700 001:234 JLINK_WriteReg(PSP, 0x20000800)  returns 0x00 (0000ms, 0684ms total)
T1700 001:234 JLINK_WriteReg(CFBP, 0x00000000)  returns 0x00 (0000ms, 0684ms total)
T1700 001:234 JLINK_SetBPEx(Addr = 0x20000000, Type = 0xFFFFFFF2) -- CPU_ReadMem(2 bytes @ 0x20000000)  returns 0x00000001 (0000ms, 0684ms total)
T1700 001:234 JLINK_Go() -- CPU_WriteMem(2 bytes @ 0x20000000) -- CPU_WriteMem(4 bytes @ 0xE0002008) -- CPU_WriteMem(4 bytes @ 0xE000200C) -- CPU_WriteMem(4 bytes @ 0xE0002010) -- CPU_WriteMem(4 bytes @ 0xE0002014) -- CPU_WriteMem(4 bytes @ 0xE0002018) -- CPU_WriteMem(4 bytes @ 0xE000201C) -- CPU_WriteMem(4 bytes @ 0xE0001004) (0005ms, 0689ms total)
T1700 001:239 JLINK_IsHalted() -- CPU_ReadMem(2 bytes @ 0x20000000)  returns TRUE (0002ms, 0691ms total)
T1700 001:241 JLINK_ReadReg(R15 (PC))  returns 0x20000000 (0000ms, 0689ms total)
T1700 001:241 JLINK_ClrBPEx(BPHandle = 0x00000001)  returns 0x00 (0000ms, 0689ms total)
T1700 001:241 JLINK_ReadReg(R0)  returns 0x00000000 (0001ms, 0690ms total)
T1700 001:243 JLINK_WriteReg(R0, 0x08000000)  returns 0x00 (0000ms, 0690ms total)
T1700 001:243 JLINK_WriteReg(R1, 0x00B71B00)  returns 0x00 (0000ms, 0690ms total)
T1700 001:243 JLINK_WriteReg(R2, 0x00000001)  returns 0x00 (0000ms, 0690ms total)
T1700 001:243 JLINK_WriteReg(R3, 0x00000000)  returns 0x00 (0000ms, 0690ms total)
T1700 001:243 JLINK_WriteReg(R4, 0x00000000)  returns 0x00 (0000ms, 0690ms total)
T1700 001:243 JLINK_WriteReg(R5, 0x00000000)  returns 0x00 (0000ms, 0690ms total)
T1700 001:243 JLINK_WriteReg(R6, 0x00000000)  returns 0x00 (0001ms, 0691ms total)
T1700 001:244 JLINK_WriteReg(R7, 0x00000000)  returns 0x00 (0000ms, 0691ms total)
T1700 001:244 JLINK_WriteReg(R8, 0x00000000)  returns 0x00 (0000ms, 0691ms total)
T1700 001:244 JLINK_WriteReg(R9, 0x20000160)  returns 0x00 (0000ms, 0691ms total)
T1700 001:244 JLINK_WriteReg(R10, 0x00000000)  returns 0x00 (0000ms, 0691ms total)
T1700 001:244 JLINK_WriteReg(R11, 0x00000000)  returns 0x00 (0000ms, 0691ms total)
T1700 001:244 JLINK_WriteReg(R12, 0x00000000)  returns 0x00 (0000ms, 0691ms total)
T1700 001:244 JLINK_WriteReg(R13 (SP), 0x20000800)  returns 0x00 (0000ms, 0691ms total)
T1700 001:244 JLINK_WriteReg(R14, 0x20000001)  returns 0x00 (0000ms, 0691ms total)
T1700 001:244 JLINK_WriteReg(R15 (PC), 0x2000007C)  returns 0x00 (0000ms, 0691ms total)
T1700 001:244 JLINK_WriteReg(XPSR, 0x01000000)  returns 0x00 (0001ms, 0692ms total)
T1700 001:245 JLINK_WriteReg(MSP, 0x20000800)  returns 0x00 (0000ms, 0692ms total)
T1700 001:245 JLINK_WriteReg(PSP, 0x20000800)  returns 0x00 (0000ms, 0692ms total)
T1700 001:245 JLINK_WriteReg(CFBP, 0x00000000)  returns 0x00 (0000ms, 0692ms total)
T1700 001:245 JLINK_SetBPEx(Addr = 0x20000000, Type = 0xFFFFFFF2)  returns 0x00000002 (0000ms, 0692ms total)
T1700 001:245 JLINK_Go() (0001ms, 0693ms total)
T1700 001:246 JLINK_IsHalted()  returns FALSE (0000ms, 0693ms total)
T1700 001:311 JLINK_IsHalted() -- CPU_ReadMem(2 bytes @ 0x20000000)  returns TRUE (0002ms, 0695ms total)
T1700 001:313 JLINK_ReadReg(R15 (PC))  returns 0x20000000 (0000ms, 0693ms total)
T1700 001:313 JLINK_ClrBPEx(BPHandle = 0x00000002)  returns 0x00 (0000ms, 0693ms total)
T1700 001:313 JLINK_ReadReg(R0)  returns 0x00000000 (0000ms, 0693ms total)
T1700 001:366 JLINK_WriteReg(R0, 0x00000001)  returns 0x00 (0000ms, 0693ms total)
T1700 001:366 JLINK_WriteReg(R1, 0x00B71B00)  returns 0x00 (0001ms, 0694ms total)
T1700 001:367 JLINK_WriteReg(R2, 0x00000001)  returns 0x00 (0000ms, 0694ms total)
T1700 001:367 JLINK_WriteReg(R3, 0x00000000)  returns 0x00 (0000ms, 0694ms total)
T1700 001:367 JLINK_WriteReg(R4, 0x00000000)  returns 0x00 (0000ms, 0694ms total)
T1700 001:367 JLINK_WriteReg(R5, 0x00000000)  returns 0x00 (0000ms, 0694ms total)
T1700 001:367 JLINK_WriteReg(R6, 0x00000000)  returns 0x00 (0000ms, 0694ms total)
T1700 001:367 JLINK_WriteReg(R7, 0x00000000)  returns 0x00 (0000ms, 0694ms total)
T1700 001:367 JLINK_WriteReg(R8, 0x00000000)  returns 0x00 (0000ms, 0694ms total)
T1700 001:367 JLINK_WriteReg(R9, 0x20000160)  returns 0x00 (0000ms, 0694ms total)
T1700 001:367 JLINK_WriteReg(R10, 0x00000000)  returns 0x00 (0000ms, 0694ms total)
T1700 001:367 JLINK_WriteReg(R11, 0x00000000)  returns 0x00 (0001ms, 0695ms total)
T1700 001:368 JLINK_WriteReg(R12, 0x00000000)  returns 0x00 (0000ms, 0695ms total)
T1700 001:368 JLINK_WriteReg(R13 (SP), 0x20000800)  returns 0x00 (0000ms, 0695ms total)
T1700 001:368 JLINK_WriteReg(R14, 0x20000001)  returns 0x00 (0000ms, 0695ms total)
T1700 001:368 JLINK_WriteReg(R15 (PC), 0x2000006A)  returns 0x00 (0000ms, 0695ms total)
T1700 001:368 JLINK_WriteReg(XPSR, 0x01000000)  returns 0x00 (0000ms, 0695ms total)
T1700 001:368 JLINK_WriteReg(MSP, 0x20000800)  returns 0x00 (0000ms, 0695ms total)
T1700 001:368 JLINK_WriteReg(PSP, 0x20000800)  returns 0x00 (0000ms, 0695ms total)
T1700 001:368 JLINK_WriteReg(CFBP, 0x00000000)  returns 0x00 (0000ms, 0695ms total)
T1700 001:368 JLINK_SetBPEx(Addr = 0x20000000, Type = 0xFFFFFFF2)  returns 0x00000003 (0001ms, 0696ms total)
T1700 001:369 JLINK_Go() (0001ms, 0697ms total)
T1700 001:370 JLINK_IsHalted() -- CPU_ReadMem(2 bytes @ 0x20000000)  returns TRUE (0002ms, 0699ms total)
T1700 001:372 JLINK_ReadReg(R15 (PC))  returns 0x20000000 (0000ms, 0697ms total)
T1700 001:372 JLINK_ClrBPEx(BPHandle = 0x00000003)  returns 0x00 (0000ms, 0697ms total)
T1700 001:372 JLINK_ReadReg(R0)  returns 0x00000000 (0000ms, 0697ms total)
T1700 001:383 JLINK_WriteMem(0x20000000, 0x0164 Bytes, ...) - Data: 00 BE 0A E0 0D 78 2D 06 68 40 08 24 40 00 00 D3 ... -- CPU_WriteMem(356 bytes @ 0x20000000)  returns 0x164 (0002ms, 0699ms total)
T1700 001:385 JLINK_WriteReg(R0, 0x08000000)  returns 0x00 (0000ms, 0699ms total)
T1700 001:385 JLINK_WriteReg(R1, 0x00B71B00)  returns 0x00 (0000ms, 0699ms total)
T1700 001:385 JLINK_WriteReg(R2, 0x00000002)  returns 0x00 (0000ms, 0699ms total)
T1700 001:385 JLINK_WriteReg(R3, 0x00000000)  returns 0x00 (0000ms, 0699ms total)
T1700 001:385 JLINK_WriteReg(R4, 0x00000000)  returns 0x00 (0000ms, 0699ms total)
T1700 001:385 JLINK_WriteReg(R5, 0x00000000)  returns 0x00 (0000ms, 0699ms total)
T1700 001:385 JLINK_WriteReg(R6, 0x00000000)  returns 0x00 (0000ms, 0699ms total)
T1700 001:385 JLINK_WriteReg(R7, 0x00000000)  returns 0x00 (0000ms, 0699ms total)
T1700 001:385 JLINK_WriteReg(R8, 0x00000000)  returns 0x00 (0000ms, 0699ms total)
T1700 001:385 JLINK_WriteReg(R9, 0x20000160)  returns 0x00 (0001ms, 0700ms total)
T1700 001:386 JLINK_WriteReg(R10, 0x00000000)  returns 0x00 (0000ms, 0700ms total)
T1700 001:386 JLINK_WriteReg(R11, 0x00000000)  returns 0x00 (0000ms, 0700ms total)
T1700 001:386 JLINK_WriteReg(R12, 0x00000000)  returns 0x00 (0000ms, 0700ms total)
T1700 001:386 JLINK_WriteReg(R13 (SP), 0x20000800)  returns 0x00 (0000ms, 0700ms total)
T1700 001:386 JLINK_WriteReg(R14, 0x20000001)  returns 0x00 (0000ms, 0700ms total)
T1700 001:386 JLINK_WriteReg(R15 (PC), 0x20000038)  returns 0x00 (0000ms, 0700ms total)
T1700 001:386 JLINK_WriteReg(XPSR, 0x01000000)  returns 0x00 (0000ms, 0700ms total)
T1700 001:386 JLINK_WriteReg(MSP, 0x20000800)  returns 0x00 (0000ms, 0700ms total)
T1700 001:386 JLINK_WriteReg(PSP, 0x20000800)  returns 0x00 (0001ms, 0701ms total)
T1700 001:387 JLINK_WriteReg(CFBP, 0x00000000)  returns 0x00 (0000ms, 0701ms total)
T1700 001:387 JLINK_SetBPEx(Addr = 0x20000000, Type = 0xFFFFFFF2) -- CPU_ReadMem(2 bytes @ 0x20000000)  returns 0x00000004 (0000ms, 0701ms total)
T1700 001:387 JLINK_Go() -- CPU_WriteMem(2 bytes @ 0x20000000) (0002ms, 0703ms total)
T1700 001:389 JLINK_IsHalted() -- CPU_ReadMem(2 bytes @ 0x20000000)  returns TRUE (0002ms, 0705ms total)
T1700 001:391 JLINK_ReadReg(R15 (PC))  returns 0x20000000 (0000ms, 0703ms total)
T1700 001:391 JLINK_ClrBPEx(BPHandle = 0x00000004)  returns 0x00 (0000ms, 0703ms total)
T1700 001:391 JLINK_ReadReg(R0)  returns 0x00000000 (0000ms, 0703ms total)
T1700 001:392 JLINK_WriteMem(0x20000164, 0x0400 Bytes, ...) - Data: 00 04 00 20 47 01 00 08 C9 0F 00 08 CB 0F 00 08 ... -- CPU_WriteMem(1024 bytes @ 0x20000164)  returns 0x400 (0003ms, 0706ms total)
T1700 001:395 JLINK_WriteReg(R0, 0x08000000)  returns 0x00 (0000ms, 0706ms total)
T1700 001:395 JLINK_WriteReg(R1, 0x00000400)  returns 0x00 (0000ms, 0706ms total)
T1700 001:395 JLINK_WriteReg(R2, 0x20000164)  returns 0x00 (0000ms, 0706ms total)
T1700 001:395 JLINK_WriteReg(R3, 0x00000000)  returns 0x00 (0000ms, 0706ms total)
T1700 001:395 JLINK_WriteReg(R4, 0x00000000)  returns 0x00 (0000ms, 0706ms total)
T1700 001:395 JLINK_WriteReg(R5, 0x00000000)  returns 0x00 (0000ms, 0706ms total)
T1700 001:395 JLINK_WriteReg(R6, 0x00000000)  returns 0x00 (0000ms, 0706ms total)
T1700 001:395 JLINK_WriteReg(R7, 0x00000000)  returns 0x00 (0001ms, 0707ms total)
T1700 001:396 JLINK_WriteReg(R8, 0x00000000)  returns 0x00 (0000ms, 0707ms total)
T1700 001:396 JLINK_WriteReg(R9, 0x20000160)  returns 0x00 (0000ms, 0707ms total)
T1700 001:396 JLINK_WriteReg(R10, 0x00000000)  returns 0x00 (0000ms, 0707ms total)
T1700 001:396 JLINK_WriteReg(R11, 0x00000000)  returns 0x00 (0000ms, 0707ms total)
T1700 001:396 JLINK_WriteReg(R12, 0x00000000)  returns 0x00 (0000ms, 0707ms total)
T1700 001:396 JLINK_WriteReg(R13 (SP), 0x20000800)  returns 0x00 (0000ms, 0707ms total)
T1700 001:396 JLINK_WriteReg(R14, 0x20000001)  returns 0x00 (0000ms, 0707ms total)
T1700 001:396 JLINK_WriteReg(R15 (PC), 0x200000F4)  returns 0x00 (0000ms, 0707ms total)
T1700 001:396 JLINK_WriteReg(XPSR, 0x01000000)  returns 0x00 (0000ms, 0707ms total)
T1700 001:397 JLINK_WriteReg(MSP, 0x20000800)  returns 0x00 (0000ms, 0708ms total)
T1700 001:397 JLINK_WriteReg(PSP, 0x20000800)  returns 0x00 (0000ms, 0708ms total)
T1700 001:397 JLINK_WriteReg(CFBP, 0x00000000)  returns 0x00 (0000ms, 0708ms total)
T1700 001:397 JLINK_SetBPEx(Addr = 0x20000000, Type = 0xFFFFFFF2)  returns 0x00000005 (0000ms, 0708ms total)
T1700 001:397 JLINK_Go() (0001ms, 0709ms total)
T1700 001:398 JLINK_IsHalted()  returns FALSE (0001ms, 0710ms total)
T1700 001:403 JLINK_IsHalted()  returns FALSE (0000ms, 0709ms total)
T1700 001:409 JLINK_IsHalted()  returns FALSE (0000ms, 0709ms total)
T1700 001:411 JLINK_IsHalted()  returns FALSE (0000ms, 0709ms total)
T1700 001:413 JLINK_IsHalted()  returns FALSE (0000ms, 0709ms total)
T1700 001:415 JLINK_IsHalted()  returns FALSE (0000ms, 0709ms total)
T1700 001:417 JLINK_IsHalted()  returns FALSE (0000ms, 0709ms total)
T1700 001:419 JLINK_IsHalted()  returns FALSE (0000ms, 0709ms total)
T1700 001:421 JLINK_IsHalted()  returns FALSE (0000ms, 0709ms total)
T1700 001:423 JLINK_IsHalted()  returns FALSE (0000ms, 0709ms total)
T1700 001:425 JLINK_IsHalted()  returns FALSE (0000ms, 0709ms total)
T1700 001:426 JLINK_IsHalted()  returns FALSE (0001ms, 0710ms total)
T1700 001:429 JLINK_IsHalted()  returns FALSE (0000ms, 0709ms total)
T1700 001:431 JLINK_IsHalted() -- CPU_ReadMem(2 bytes @ 0x20000000)  returns TRUE (0002ms, 0711ms total)
T1700 001:433 JLINK_ReadReg(R15 (PC))  returns 0x20000000 (0000ms, 0709ms total)
T1700 001:433 JLINK_ClrBPEx(BPHandle = 0x00000005)  returns 0x00 (0000ms, 0709ms total)
T1700 001:433 JLINK_ReadReg(R0)  returns 0x00000000 (0000ms, 0709ms total)
T1700 001:434 JLINK_WriteMem(0x20000164, 0x0400 Bytes, ...) - Data: 6A 51 28 20 01 F0 8D F8 01 20 26 90 0A E0 00 20 ... -- CPU_WriteMem(1024 bytes @ 0x20000164)  returns 0x400 (0003ms, 0712ms total)
T1700 001:437 JLINK_WriteReg(R0, 0x08000400)  returns 0x00 (0000ms, 0712ms total)
T1700 001:437 JLINK_WriteReg(R1, 0x00000400)  returns 0x00 (0000ms, 0712ms total)
T1700 001:437 JLINK_WriteReg(R2, 0x20000164)  returns 0x00 (0000ms, 0712ms total)
T1700 001:437 JLINK_WriteReg(R3, 0x00000000)  returns 0x00 (0001ms, 0713ms total)
T1700 001:438 JLINK_WriteReg(R4, 0x00000000)  returns 0x00 (0000ms, 0713ms total)
T1700 001:438 JLINK_WriteReg(R5, 0x00000000)  returns 0x00 (0000ms, 0713ms total)
T1700 001:438 JLINK_WriteReg(R6, 0x00000000)  returns 0x00 (0000ms, 0713ms total)
T1700 001:438 JLINK_WriteReg(R7, 0x00000000)  returns 0x00 (0000ms, 0713ms total)
T1700 001:438 JLINK_WriteReg(R8, 0x00000000)  returns 0x00 (0000ms, 0713ms total)
T1700 001:438 JLINK_WriteReg(R9, 0x20000160)  returns 0x00 (0000ms, 0713ms total)
T1700 001:438 JLINK_WriteReg(R10, 0x00000000)  returns 0x00 (0000ms, 0713ms total)
T1700 001:438 JLINK_WriteReg(R11, 0x00000000)  returns 0x00 (0000ms, 0713ms total)
T1700 001:438 JLINK_WriteReg(R12, 0x00000000)  returns 0x00 (0000ms, 0713ms total)
T1700 001:438 JLINK_WriteReg(R13 (SP), 0x20000800)  returns 0x00 (0000ms, 0713ms total)
T1700 001:438 JLINK_WriteReg(R14, 0x20000001)  returns 0x00 (0001ms, 0714ms total)
T1700 001:439 JLINK_WriteReg(R15 (PC), 0x200000F4)  returns 0x00 (0000ms, 0714ms total)
T1700 001:439 JLINK_WriteReg(XPSR, 0x01000000)  returns 0x00 (0000ms, 0714ms total)
T1700 001:439 JLINK_WriteReg(MSP, 0x20000800)  returns 0x00 (0000ms, 0714ms total)
T1700 001:439 JLINK_WriteReg(PSP, 0x20000800)  returns 0x00 (0000ms, 0714ms total)
T1700 001:439 JLINK_WriteReg(CFBP, 0x00000000)  returns 0x00 (0000ms, 0714ms total)
T1700 001:439 JLINK_SetBPEx(Addr = 0x20000000, Type = 0xFFFFFFF2)  returns 0x00000006 (0000ms, 0714ms total)
T1700 001:439 JLINK_Go() (0001ms, 0715ms total)
T1700 001:440 JLINK_IsHalted()  returns FALSE (0001ms, 0716ms total)
T1700 001:443 JLINK_IsHalted()  returns FALSE (0000ms, 0715ms total)
T1700 001:445 JLINK_IsHalted()  returns FALSE (0000ms, 0715ms total)
T1700 001:447 JLINK_IsHalted()  returns FALSE (0000ms, 0715ms total)
T1700 001:449 JLINK_IsHalted()  returns FALSE (0000ms, 0715ms total)
T1700 001:451 JLINK_IsHalted()  returns FALSE (0000ms, 0715ms total)
T1700 001:453 JLINK_IsHalted()  returns FALSE (0000ms, 0715ms total)
T1700 001:455 JLINK_IsHalted()  returns FALSE (0000ms, 0715ms total)
T1700 001:457 JLINK_IsHalted()  returns FALSE (0000ms, 0715ms total)
T1700 001:459 JLINK_IsHalted()  returns FALSE (0000ms, 0715ms total)
T1700 001:462 JLINK_IsHalted()  returns FALSE (0000ms, 0715ms total)
T1700 001:464 JLINK_IsHalted()  returns FALSE (0000ms, 0715ms total)
T1700 001:466 JLINK_IsHalted()  returns FALSE (0000ms, 0715ms total)
T1700 001:468 JLINK_IsHalted()  returns FALSE (0000ms, 0715ms total)
T1700 001:470 JLINK_IsHalted()  returns FALSE (0000ms, 0715ms total)
T1700 001:472 JLINK_IsHalted() -- CPU_ReadMem(2 bytes @ 0x20000000)  returns TRUE (0002ms, 0717ms total)
T1700 001:474 JLINK_ReadReg(R15 (PC))  returns 0x20000000 (0000ms, 0715ms total)
T1700 001:474 JLINK_ClrBPEx(BPHandle = 0x00000006)  returns 0x00 (0000ms, 0715ms total)
T1700 001:474 JLINK_ReadReg(R0)  returns 0x00000000 (0000ms, 0715ms total)
T1700 001:475 JLINK_WriteMem(0x20000164, 0x0400 Bytes, ...) - Data: 68 61 76 65 20 74 75 72 6E 65 64 20 6F 6E 20 63 ... -- CPU_WriteMem(1024 bytes @ 0x20000164)  returns 0x400 (0004ms, 0719ms total)
T1700 001:479 JLINK_WriteReg(R0, 0x08000800)  returns 0x00 (0000ms, 0719ms total)
T1700 001:479 JLINK_WriteReg(R1, 0x00000400)  returns 0x00 (0000ms, 0719ms total)
T1700 001:479 JLINK_WriteReg(R2, 0x20000164)  returns 0x00 (0000ms, 0719ms total)
T1700 001:479 JLINK_WriteReg(R3, 0x00000000)  returns 0x00 (0000ms, 0719ms total)
T1700 001:479 JLINK_WriteReg(R4, 0x00000000)  returns 0x00 (0000ms, 0719ms total)
T1700 001:479 JLINK_WriteReg(R5, 0x00000000)  returns 0x00 (0000ms, 0719ms total)
T1700 001:479 JLINK_WriteReg(R6, 0x00000000)  returns 0x00 (0000ms, 0719ms total)
T1700 001:479 JLINK_WriteReg(R7, 0x00000000)  returns 0x00 (0000ms, 0719ms total)
T1700 001:479 JLINK_WriteReg(R8, 0x00000000)  returns 0x00 (0001ms, 0720ms total)
T1700 001:480 JLINK_WriteReg(R9, 0x20000160)  returns 0x00 (0000ms, 0720ms total)
T1700 001:480 JLINK_WriteReg(R10, 0x00000000)  returns 0x00 (0000ms, 0720ms total)
T1700 001:480 JLINK_WriteReg(R11, 0x00000000)  returns 0x00 (0000ms, 0720ms total)
T1700 001:480 JLINK_WriteReg(R12, 0x00000000)  returns 0x00 (0000ms, 0720ms total)
T1700 001:480 JLINK_WriteReg(R13 (SP), 0x20000800)  returns 0x00 (0000ms, 0720ms total)
T1700 001:480 JLINK_WriteReg(R14, 0x20000001)  returns 0x00 (0000ms, 0720ms total)
T1700 001:480 JLINK_WriteReg(R15 (PC), 0x200000F4)  returns 0x00 (0000ms, 0720ms total)
T1700 001:480 JLINK_WriteReg(XPSR, 0x01000000)  returns 0x00 (0000ms, 0720ms total)
T1700 001:480 JLINK_WriteReg(MSP, 0x20000800)  returns 0x00 (0000ms, 0720ms total)
T1700 001:480 JLINK_WriteReg(PSP, 0x20000800)  returns 0x00 (0000ms, 0720ms total)
T1700 001:480 JLINK_WriteReg(CFBP, 0x00000000)  returns 0x00 (0001ms, 0721ms total)
T1700 001:481 JLINK_SetBPEx(Addr = 0x20000000, Type = 0xFFFFFFF2)  returns 0x00000007 (0000ms, 0721ms total)
T1700 001:481 JLINK_Go() (0001ms, 0722ms total)
T1700 001:482 JLINK_IsHalted()  returns FALSE (0000ms, 0722ms total)
T1700 001:484 JLINK_IsHalted()  returns FALSE (0000ms, 0722ms total)
T1700 001:486 JLINK_IsHalted()  returns FALSE (0000ms, 0722ms total)
T1700 001:488 JLINK_IsHalted()  returns FALSE (0000ms, 0722ms total)
T1700 001:490 JLINK_IsHalted()  returns FALSE (0000ms, 0722ms total)
T1700 001:492 JLINK_IsHalted()  returns FALSE (0000ms, 0722ms total)
T1700 001:494 JLINK_IsHalted()  returns FALSE (0000ms, 0722ms total)
T1700 001:496 JLINK_IsHalted()  returns FALSE (0000ms, 0722ms total)
T1700 001:498 JLINK_IsHalted()  returns FALSE (0000ms, 0722ms total)
T1700 001:500 JLINK_IsHalted()  returns FALSE (0000ms, 0722ms total)
T1700 001:502 JLINK_IsHalted()  returns FALSE (0000ms, 0722ms total)
T1700 001:504 JLINK_IsHalted()  returns FALSE (0000ms, 0722ms total)
T1700 001:506 JLINK_IsHalted()  returns FALSE (0000ms, 0722ms total)
T1700 001:508 JLINK_IsHalted()  returns FALSE (0000ms, 0722ms total)
T1700 001:509 JLINK_IsHalted()  returns FALSE (0001ms, 0723ms total)
T1700 001:512 JLINK_IsHalted()  returns FALSE (0000ms, 0722ms total)
T1700 001:519 JLINK_IsHalted() -- CPU_ReadMem(2 bytes @ 0x20000000)  returns TRUE (0002ms, 0724ms total)
T1700 001:521 JLINK_ReadReg(R15 (PC))  returns 0x20000000 (0000ms, 0722ms total)
T1700 001:521 JLINK_ClrBPEx(BPHandle = 0x00000007)  returns 0x00 (0000ms, 0722ms total)
T1700 001:521 JLINK_ReadReg(R0)  returns 0x00000000 (0001ms, 0723ms total)
T1700 001:524 JLINK_WriteMem(0x20000164, 0x0400 Bytes, ...) - Data: 03 F0 64 FC 24 90 24 98 14 38 24 90 24 98 01 F0 ... -- CPU_WriteMem(1024 bytes @ 0x20000164)  returns 0x400 (0003ms, 0726ms total)
T1700 001:527 JLINK_WriteReg(R0, 0x08000C00)  returns 0x00 (0000ms, 0726ms total)
T1700 001:527 JLINK_WriteReg(R1, 0x00000400)  returns 0x00 (0000ms, 0726ms total)
T1700 001:527 JLINK_WriteReg(R2, 0x20000164)  returns 0x00 (0000ms, 0726ms total)
T1700 001:527 JLINK_WriteReg(R3, 0x00000000)  returns 0x00 (0000ms, 0726ms total)
T1700 001:528 JLINK_WriteReg(R4, 0x00000000)  returns 0x00 (0000ms, 0727ms total)
T1700 001:528 JLINK_WriteReg(R5, 0x00000000)  returns 0x00 (0000ms, 0727ms total)
T1700 001:528 JLINK_WriteReg(R6, 0x00000000)  returns 0x00 (0000ms, 0727ms total)
T1700 001:528 JLINK_WriteReg(R7, 0x00000000)  returns 0x00 (0000ms, 0727ms total)
T1700 001:528 JLINK_WriteReg(R8, 0x00000000)  returns 0x00 (0000ms, 0727ms total)
T1700 001:528 JLINK_WriteReg(R9, 0x20000160)  returns 0x00 (0000ms, 0727ms total)
T1700 001:528 JLINK_WriteReg(R10, 0x00000000)  returns 0x00 (0000ms, 0727ms total)
T1700 001:528 JLINK_WriteReg(R11, 0x00000000)  returns 0x00 (0000ms, 0727ms total)
T1700 001:528 JLINK_WriteReg(R12, 0x00000000)  returns 0x00 (0000ms, 0727ms total)
T1700 001:528 JLINK_WriteReg(R13 (SP), 0x20000800)  returns 0x00 (0000ms, 0727ms total)
T1700 001:528 JLINK_WriteReg(R14, 0x20000001)  returns 0x00 (0001ms, 0728ms total)
T1700 001:529 JLINK_WriteReg(R15 (PC), 0x200000F4)  returns 0x00 (0000ms, 0728ms total)
T1700 001:529 JLINK_WriteReg(XPSR, 0x01000000)  returns 0x00 (0000ms, 0728ms total)
T1700 001:529 JLINK_WriteReg(MSP, 0x20000800)  returns 0x00 (0000ms, 0728ms total)
T1700 001:529 JLINK_WriteReg(PSP, 0x20000800)  returns 0x00 (0000ms, 0728ms total)
T1700 001:529 JLINK_WriteReg(CFBP, 0x00000000)  returns 0x00 (0000ms, 0728ms total)
T1700 001:529 JLINK_SetBPEx(Addr = 0x20000000, Type = 0xFFFFFFF2)  returns 0x00000008 (0000ms, 0728ms total)
T1700 001:529 JLINK_Go() (0001ms, 0729ms total)
T1700 001:530 JLINK_IsHalted()  returns FALSE (0001ms, 0730ms total)
T1700 001:534 JLINK_IsHalted()  returns FALSE (0000ms, 0729ms total)
T1700 001:536 JLINK_IsHalted()  returns FALSE (0000ms, 0729ms total)
T1700 001:538 JLINK_IsHalted()  returns FALSE (0000ms, 0729ms total)
T1700 001:547 JLINK_IsHalted()  returns FALSE (0000ms, 0729ms total)
T1700 001:551 JLINK_IsHalted()  returns FALSE (0000ms, 0729ms total)
T1700 001:553 JLINK_IsHalted()  returns FALSE (0000ms, 0729ms total)
T1700 001:555 JLINK_IsHalted()  returns FALSE (0000ms, 0729ms total)
T1700 001:559 JLINK_IsHalted()  returns FALSE (0001ms, 0730ms total)
T1700 001:561 JLINK_IsHalted() -- CPU_ReadMem(2 bytes @ 0x20000000)  returns TRUE (0002ms, 0731ms total)
T1700 001:563 JLINK_ReadReg(R15 (PC))  returns 0x20000000 (0000ms, 0729ms total)
T1700 001:563 JLINK_ClrBPEx(BPHandle = 0x00000008)  returns 0x00 (0001ms, 0730ms total)
T1700 001:564 JLINK_ReadReg(R0)  returns 0x00000000 (0000ms, 0730ms total)
T1700 001:564 JLINK_WriteMem(0x20000164, 0x0400 Bytes, ...) - Data: 03 00 68 46 01 F0 87 FE 08 BD 00 B5 85 B0 01 21 ... -- CPU_WriteMem(1024 bytes @ 0x20000164)  returns 0x400 (0005ms, 0735ms total)
T1700 001:569 JLINK_WriteReg(R0, 0x08001000)  returns 0x00 (0000ms, 0735ms total)
T1700 001:569 JLINK_WriteReg(R1, 0x00000400)  returns 0x00 (0000ms, 0735ms total)
T1700 001:569 JLINK_WriteReg(R2, 0x20000164)  returns 0x00 (0000ms, 0735ms total)
T1700 001:569 JLINK_WriteReg(R3, 0x00000000)  returns 0x00 (0000ms, 0735ms total)
T1700 001:569 JLINK_WriteReg(R4, 0x00000000)  returns 0x00 (0000ms, 0735ms total)
T1700 001:569 JLINK_WriteReg(R5, 0x00000000)  returns 0x00 (0000ms, 0735ms total)
T1700 001:569 JLINK_WriteReg(R6, 0x00000000)  returns 0x00 (0000ms, 0735ms total)
T1700 001:569 JLINK_WriteReg(R7, 0x00000000)  returns 0x00 (0000ms, 0735ms total)
T1700 001:569 JLINK_WriteReg(R8, 0x00000000)  returns 0x00 (0000ms, 0735ms total)
T1700 001:569 JLINK_WriteReg(R9, 0x20000160)  returns 0x00 (0000ms, 0735ms total)
T1700 001:570 JLINK_WriteReg(R10, 0x00000000)  returns 0x00 (0000ms, 0736ms total)
T1700 001:570 JLINK_WriteReg(R11, 0x00000000)  returns 0x00 (0000ms, 0736ms total)
T1700 001:570 JLINK_WriteReg(R12, 0x00000000)  returns 0x00 (0000ms, 0736ms total)
T1700 001:570 JLINK_WriteReg(R13 (SP), 0x20000800)  returns 0x00 (0000ms, 0736ms total)
T1700 001:570 JLINK_WriteReg(R14, 0x20000001)  returns 0x00 (0000ms, 0736ms total)
T1700 001:570 JLINK_WriteReg(R15 (PC), 0x200000F4)  returns 0x00 (0000ms, 0736ms total)
T1700 001:570 JLINK_WriteReg(XPSR, 0x01000000)  returns 0x00 (0000ms, 0736ms total)
T1700 001:570 JLINK_WriteReg(MSP, 0x20000800)  returns 0x00 (0000ms, 0736ms total)
T1700 001:570 JLINK_WriteReg(PSP, 0x20000800)  returns 0x00 (0000ms, 0736ms total)
T1700 001:570 JLINK_WriteReg(CFBP, 0x00000000)  returns 0x00 (0000ms, 0736ms total)
T1700 001:570 JLINK_SetBPEx(Addr = 0x20000000, Type = 0xFFFFFFF2)  returns 0x00000009 (0000ms, 0736ms total)
T1700 001:570 JLINK_Go() (0001ms, 0737ms total)
T1700 001:571 JLINK_IsHalted()  returns FALSE (0001ms, 0738ms total)
T1700 001:579 JLINK_IsHalted()  returns FALSE (0000ms, 0737ms total)
T1700 001:581 JLINK_IsHalted()  returns FALSE (0000ms, 0737ms total)
T1700 001:583 JLINK_IsHalted()  returns FALSE (0000ms, 0737ms total)
T1700 001:585 JLINK_IsHalted()  returns FALSE (0001ms, 0738ms total)
T1700 001:590 JLINK_IsHalted()  returns FALSE (0000ms, 0737ms total)
T1700 001:592 JLINK_IsHalted()  returns FALSE (0000ms, 0737ms total)
T1700 001:594 JLINK_IsHalted()  returns FALSE (0000ms, 0737ms total)
T1700 001:596 JLINK_IsHalted()  returns FALSE (0000ms, 0737ms total)
T1700 001:598 JLINK_IsHalted()  returns FALSE (0000ms, 0737ms total)
T1700 001:601 JLINK_IsHalted()  returns FALSE (0000ms, 0737ms total)
T1700 001:603 JLINK_IsHalted() -- CPU_ReadMem(2 bytes @ 0x20000000)  returns TRUE (0002ms, 0739ms total)
T1700 001:605 JLINK_ReadReg(R15 (PC))  returns 0x20000000 (0000ms, 0737ms total)
T1700 001:605 JLINK_ClrBPEx(BPHandle = 0x00000009)  returns 0x00 (0000ms, 0737ms total)
T1700 001:605 JLINK_ReadReg(R0)  returns 0x00000000 (0000ms, 0737ms total)
T1700 001:606 JLINK_WriteMem(0x20000164, 0x0400 Bytes, ...) - Data: 01 A8 00 5D 00 EB 07 27 64 1C AC 42 F8 DD 38 46 ... -- CPU_WriteMem(1024 bytes @ 0x20000164)  returns 0x400 (0003ms, 0740ms total)
T1700 001:609 JLINK_WriteReg(R0, 0x08001400)  returns 0x00 (0000ms, 0740ms total)
T1700 001:609 JLINK_WriteReg(R1, 0x00000400)  returns 0x00 (0000ms, 0740ms total)
T1700 001:609 JLINK_WriteReg(R2, 0x20000164)  returns 0x00 (0001ms, 0741ms total)
T1700 001:610 JLINK_WriteReg(R3, 0x00000000)  returns 0x00 (0000ms, 0741ms total)
T1700 001:610 JLINK_WriteReg(R4, 0x00000000)  returns 0x00 (0000ms, 0741ms total)
T1700 001:610 JLINK_WriteReg(R5, 0x00000000)  returns 0x00 (0000ms, 0741ms total)
T1700 001:610 JLINK_WriteReg(R6, 0x00000000)  returns 0x00 (0000ms, 0741ms total)
T1700 001:610 JLINK_WriteReg(R7, 0x00000000)  returns 0x00 (0000ms, 0741ms total)
T1700 001:610 JLINK_WriteReg(R8, 0x00000000)  returns 0x00 (0000ms, 0741ms total)
T1700 001:610 JLINK_WriteReg(R9, 0x20000160)  returns 0x00 (0000ms, 0741ms total)
T1700 001:610 JLINK_WriteReg(R10, 0x00000000)  returns 0x00 (0000ms, 0741ms total)
T1700 001:610 JLINK_WriteReg(R11, 0x00000000)  returns 0x00 (0000ms, 0741ms total)
T1700 001:610 JLINK_WriteReg(R12, 0x00000000)  returns 0x00 (0000ms, 0741ms total)
T1700 001:610 JLINK_WriteReg(R13 (SP), 0x20000800)  returns 0x00 (0001ms, 0742ms total)
T1700 001:611 JLINK_WriteReg(R14, 0x20000001)  returns 0x00 (0000ms, 0742ms total)
T1700 001:611 JLINK_WriteReg(R15 (PC), 0x200000F4)  returns 0x00 (0000ms, 0742ms total)
T1700 001:611 JLINK_WriteReg(XPSR, 0x01000000)  returns 0x00 (0000ms, 0742ms total)
T1700 001:611 JLINK_WriteReg(MSP, 0x20000800)  returns 0x00 (0000ms, 0742ms total)
T1700 001:611 JLINK_WriteReg(PSP, 0x20000800)  returns 0x00 (0000ms, 0742ms total)
T1700 001:611 JLINK_WriteReg(CFBP, 0x00000000)  returns 0x00 (0000ms, 0742ms total)
T1700 001:611 JLINK_SetBPEx(Addr = 0x20000000, Type = 0xFFFFFFF2)  returns 0x0000000A (0000ms, 0742ms total)
T1700 001:611 JLINK_Go() (0002ms, 0744ms total)
T1700 001:613 JLINK_IsHalted()  returns FALSE (0000ms, 0744ms total)
T1700 001:615 JLINK_IsHalted()  returns FALSE (0000ms, 0744ms total)
T1700 001:617 JLINK_IsHalted()  returns FALSE (0001ms, 0745ms total)
T1700 001:619 JLINK_IsHalted()  returns FALSE (0000ms, 0744ms total)
T1700 001:627 JLINK_IsHalted()  returns FALSE (0000ms, 0744ms total)
T1700 001:629 JLINK_IsHalted()  returns FALSE (0000ms, 0744ms total)
T1700 001:631 JLINK_IsHalted()  returns FALSE (0000ms, 0744ms total)
T1700 001:633 JLINK_IsHalted()  returns FALSE (0001ms, 0745ms total)
T1700 001:637 JLINK_IsHalted()  returns FALSE (0000ms, 0744ms total)
T1700 001:639 JLINK_IsHalted()  returns FALSE (0000ms, 0744ms total)
T1700 001:641 JLINK_IsHalted()  returns FALSE (0000ms, 0744ms total)
T1700 001:643 JLINK_IsHalted()  returns FALSE (0000ms, 0744ms total)
T1700 001:645 JLINK_IsHalted() -- CPU_ReadMem(2 bytes @ 0x20000000)  returns TRUE (0002ms, 0746ms total)
T1700 001:647 JLINK_ReadReg(R15 (PC))  returns 0x20000000 (0000ms, 0744ms total)
T1700 001:647 JLINK_ClrBPEx(BPHandle = 0x0000000A)  returns 0x00 (0000ms, 0744ms total)
T1700 001:647 JLINK_ReadReg(R0)  returns 0x00000000 (0000ms, 0744ms total)
T1700 001:649 JLINK_WriteMem(0x20000164, 0x0400 Bytes, ...) - Data: 00 F0 F7 FC 4F F4 80 51 08 48 00 F0 F2 FC 40 46 ... -- CPU_WriteMem(1024 bytes @ 0x20000164)  returns 0x400 (0003ms, 0747ms total)
T1700 001:652 JLINK_WriteReg(R0, 0x08001800)  returns 0x00 (0000ms, 0747ms total)
T1700 001:652 JLINK_WriteReg(R1, 0x00000400)  returns 0x00 (0000ms, 0747ms total)
T1700 001:652 JLINK_WriteReg(R2, 0x20000164)  returns 0x00 (0000ms, 0747ms total)
T1700 001:652 JLINK_WriteReg(R3, 0x00000000)  returns 0x00 (0000ms, 0747ms total)
T1700 001:652 JLINK_WriteReg(R4, 0x00000000)  returns 0x00 (0000ms, 0747ms total)
T1700 001:652 JLINK_WriteReg(R5, 0x00000000)  returns 0x00 (0000ms, 0747ms total)
T1700 001:652 JLINK_WriteReg(R6, 0x00000000)  returns 0x00 (0000ms, 0747ms total)
T1700 001:652 JLINK_WriteReg(R7, 0x00000000)  returns 0x00 (0000ms, 0747ms total)
T1700 001:653 JLINK_WriteReg(R8, 0x00000000)  returns 0x00 (0000ms, 0748ms total)
T1700 001:653 JLINK_WriteReg(R9, 0x20000160)  returns 0x00 (0000ms, 0748ms total)
T1700 001:653 JLINK_WriteReg(R10, 0x00000000)  returns 0x00 (0000ms, 0748ms total)
T1700 001:653 JLINK_WriteReg(R11, 0x00000000)  returns 0x00 (0000ms, 0748ms total)
T1700 001:653 JLINK_WriteReg(R12, 0x00000000)  returns 0x00 (0000ms, 0748ms total)
T1700 001:653 JLINK_WriteReg(R13 (SP), 0x20000800)  returns 0x00 (0000ms, 0748ms total)
T1700 001:653 JLINK_WriteReg(R14, 0x20000001)  returns 0x00 (0000ms, 0748ms total)
T1700 001:653 JLINK_WriteReg(R15 (PC), 0x200000F4)  returns 0x00 (0000ms, 0748ms total)
T1700 001:653 JLINK_WriteReg(XPSR, 0x01000000)  returns 0x00 (0000ms, 0748ms total)
T1700 001:653 JLINK_WriteReg(MSP, 0x20000800)  returns 0x00 (0000ms, 0748ms total)
T1700 001:653 JLINK_WriteReg(PSP, 0x20000800)  returns 0x00 (0001ms, 0749ms total)
T1700 001:654 JLINK_WriteReg(CFBP, 0x00000000)  returns 0x00 (0000ms, 0749ms total)
T1700 001:654 JLINK_SetBPEx(Addr = 0x20000000, Type = 0xFFFFFFF2)  returns 0x0000000B (0000ms, 0749ms total)
T1700 001:654 JLINK_Go() (0001ms, 0750ms total)
T1700 001:655 JLINK_IsHalted()  returns FALSE (0001ms, 0751ms total)
T1700 001:658 JLINK_IsHalted()  returns FALSE (0000ms, 0750ms total)
T1700 001:660 JLINK_IsHalted()  returns FALSE (0000ms, 0750ms total)
T1700 001:662 JLINK_IsHalted()  returns FALSE (0000ms, 0750ms total)
T1700 001:664 JLINK_IsHalted()  returns FALSE (0000ms, 0750ms total)
T1700 001:666 JLINK_IsHalted()  returns FALSE (0000ms, 0750ms total)
T1700 001:668 JLINK_IsHalted()  returns FALSE (0000ms, 0750ms total)
T1700 001:670 JLINK_IsHalted()  returns FALSE (0000ms, 0750ms total)
T1700 001:672 JLINK_IsHalted()  returns FALSE (0000ms, 0750ms total)
T1700 001:674 JLINK_IsHalted()  returns FALSE (0000ms, 0750ms total)
T1700 001:676 JLINK_IsHalted()  returns FALSE (0000ms, 0750ms total)
T1700 001:678 JLINK_IsHalted()  returns FALSE (0000ms, 0750ms total)
T1700 001:680 JLINK_IsHalted()  returns FALSE (0000ms, 0750ms total)
T1700 001:682 JLINK_IsHalted()  returns FALSE (0000ms, 0750ms total)
T1700 001:684 JLINK_IsHalted()  returns FALSE (0000ms, 0750ms total)
T1700 001:686 JLINK_IsHalted() -- CPU_ReadMem(2 bytes @ 0x20000000)  returns TRUE (0002ms, 0752ms total)
T1700 001:688 JLINK_ReadReg(R15 (PC))  returns 0x20000000 (0000ms, 0750ms total)
T1700 001:688 JLINK_ClrBPEx(BPHandle = 0x0000000B)  returns 0x00 (0000ms, 0750ms total)
T1700 001:688 JLINK_ReadReg(R0)  returns 0x00000000 (0000ms, 0750ms total)
T1700 001:691 JLINK_WriteMem(0x20000164, 0x0400 Bytes, ...) - Data: 30 00 A6 F1 01 06 03 D1 01 20 FF F7 7D FF E7 E7 ... -- CPU_WriteMem(1024 bytes @ 0x20000164)  returns 0x400 (0003ms, 0753ms total)
T1700 001:694 JLINK_WriteReg(R0, 0x08001C00)  returns 0x00 (0000ms, 0753ms total)
T1700 001:694 JLINK_WriteReg(R1, 0x00000400)  returns 0x00 (0000ms, 0753ms total)
T1700 001:694 JLINK_WriteReg(R2, 0x20000164)  returns 0x00 (0000ms, 0753ms total)
T1700 001:694 JLINK_WriteReg(R3, 0x00000000)  returns 0x00 (0000ms, 0753ms total)
T1700 001:694 JLINK_WriteReg(R4, 0x00000000)  returns 0x00 (0000ms, 0753ms total)
T1700 001:694 JLINK_WriteReg(R5, 0x00000000)  returns 0x00 (0000ms, 0753ms total)
T1700 001:694 JLINK_WriteReg(R6, 0x00000000)  returns 0x00 (0000ms, 0753ms total)
T1700 001:694 JLINK_WriteReg(R7, 0x00000000)  returns 0x00 (0000ms, 0753ms total)
T1700 001:694 JLINK_WriteReg(R8, 0x00000000)  returns 0x00 (0000ms, 0753ms total)
T1700 001:694 JLINK_WriteReg(R9, 0x20000160)  returns 0x00 (0001ms, 0754ms total)
T1700 001:695 JLINK_WriteReg(R10, 0x00000000)  returns 0x00 (0000ms, 0754ms total)
T1700 001:695 JLINK_WriteReg(R11, 0x00000000)  returns 0x00 (0000ms, 0754ms total)
T1700 001:695 JLINK_WriteReg(R12, 0x00000000)  returns 0x00 (0000ms, 0754ms total)
T1700 001:695 JLINK_WriteReg(R13 (SP), 0x20000800)  returns 0x00 (0000ms, 0754ms total)
T1700 001:695 JLINK_WriteReg(R14, 0x20000001)  returns 0x00 (0000ms, 0754ms total)
T1700 001:695 JLINK_WriteReg(R15 (PC), 0x200000F4)  returns 0x00 (0000ms, 0754ms total)
T1700 001:695 JLINK_WriteReg(XPSR, 0x01000000)  returns 0x00 (0000ms, 0754ms total)
T1700 001:695 JLINK_WriteReg(MSP, 0x20000800)  returns 0x00 (0000ms, 0754ms total)
T1700 001:695 JLINK_WriteReg(PSP, 0x20000800)  returns 0x00 (0000ms, 0754ms total)
T1700 001:695 JLINK_WriteReg(CFBP, 0x00000000)  returns 0x00 (0000ms, 0754ms total)
T1700 001:696 JLINK_SetBPEx(Addr = 0x20000000, Type = 0xFFFFFFF2)  returns 0x0000000C (0000ms, 0754ms total)
T1700 001:696 JLINK_Go() (0001ms, 0755ms total)
T1700 001:697 JLINK_IsHalted()  returns FALSE (0001ms, 0756ms total)
T1700 001:701 JLINK_IsHalted()  returns FALSE (0000ms, 0755ms total)
T1700 001:703 JLINK_IsHalted()  returns FALSE (0000ms, 0755ms total)
T1700 001:705 JLINK_IsHalted()  returns FALSE (0000ms, 0755ms total)
T1700 001:707 JLINK_IsHalted()  returns FALSE (0000ms, 0755ms total)
T1700 001:709 JLINK_IsHalted()  returns FALSE (0000ms, 0755ms total)
T1700 001:711 JLINK_IsHalted()  returns FALSE (0000ms, 0755ms total)
T1700 001:713 JLINK_IsHalted()  returns FALSE (0000ms, 0755ms total)
T1700 001:715 JLINK_IsHalted()  returns FALSE (0000ms, 0755ms total)
T1700 001:717 JLINK_IsHalted()  returns FALSE (0000ms, 0755ms total)
T1700 001:719 JLINK_IsHalted()  returns FALSE (0000ms, 0755ms total)
T1700 001:721 JLINK_IsHalted()  returns FALSE (0000ms, 0755ms total)
T1700 001:723 JLINK_IsHalted()  returns FALSE (0000ms, 0755ms total)
T1700 001:725 JLINK_IsHalted()  returns FALSE (0001ms, 0756ms total)
T1700 001:727 JLINK_IsHalted()  returns FALSE (0000ms, 0755ms total)
T1700 001:735 JLINK_IsHalted() -- CPU_ReadMem(2 bytes @ 0x20000000)  returns TRUE (0002ms, 0757ms total)
T1700 001:737 JLINK_ReadReg(R15 (PC))  returns 0x20000000 (0000ms, 0755ms total)
T1700 001:737 JLINK_ClrBPEx(BPHandle = 0x0000000C)  returns 0x00 (0000ms, 0755ms total)
T1700 001:738 JLINK_ReadReg(R0)  returns 0x00000000 (0000ms, 0756ms total)
T1700 001:738 JLINK_WriteMem(0x20000164, 0x0400 Bytes, ...) - Data: FF FA 00 21 04 20 00 F0 FB FA 37 E0 01 21 08 20 ... -- CPU_WriteMem(1024 bytes @ 0x20000164)  returns 0x400 (0004ms, 0760ms total)
T1700 001:742 JLINK_WriteReg(R0, 0x08002000)  returns 0x00 (0000ms, 0760ms total)
T1700 001:742 JLINK_WriteReg(R1, 0x00000400)  returns 0x00 (0000ms, 0760ms total)
T1700 001:742 JLINK_WriteReg(R2, 0x20000164)  returns 0x00 (0000ms, 0760ms total)
T1700 001:742 JLINK_WriteReg(R3, 0x00000000)  returns 0x00 (0000ms, 0760ms total)
T1700 001:742 JLINK_WriteReg(R4, 0x00000000)  returns 0x00 (0000ms, 0760ms total)
T1700 001:743 JLINK_WriteReg(R5, 0x00000000)  returns 0x00 (0000ms, 0761ms total)
T1700 001:743 JLINK_WriteReg(R6, 0x00000000)  returns 0x00 (0000ms, 0761ms total)
T1700 001:743 JLINK_WriteReg(R7, 0x00000000)  returns 0x00 (0000ms, 0761ms total)
T1700 001:743 JLINK_WriteReg(R8, 0x00000000)  returns 0x00 (0000ms, 0761ms total)
T1700 001:743 JLINK_WriteReg(R9, 0x20000160)  returns 0x00 (0000ms, 0761ms total)
T1700 001:743 JLINK_WriteReg(R10, 0x00000000)  returns 0x00 (0000ms, 0761ms total)
T1700 001:743 JLINK_WriteReg(R11, 0x00000000)  returns 0x00 (0000ms, 0761ms total)
T1700 001:743 JLINK_WriteReg(R12, 0x00000000)  returns 0x00 (0000ms, 0761ms total)
T1700 001:743 JLINK_WriteReg(R13 (SP), 0x20000800)  returns 0x00 (0000ms, 0761ms total)
T1700 001:743 JLINK_WriteReg(R14, 0x20000001)  returns 0x00 (0000ms, 0761ms total)
T1700 001:743 JLINK_WriteReg(R15 (PC), 0x200000F4)  returns 0x00 (0001ms, 0762ms total)
T1700 001:744 JLINK_WriteReg(XPSR, 0x01000000)  returns 0x00 (0000ms, 0762ms total)
T1700 001:744 JLINK_WriteReg(MSP, 0x20000800)  returns 0x00 (0000ms, 0762ms total)
T1700 001:744 JLINK_WriteReg(PSP, 0x20000800)  returns 0x00 (0000ms, 0762ms total)
T1700 001:744 JLINK_WriteReg(CFBP, 0x00000000)  returns 0x00 (0000ms, 0762ms total)
T1700 001:744 JLINK_SetBPEx(Addr = 0x20000000, Type = 0xFFFFFFF2)  returns 0x0000000D (0000ms, 0762ms total)
T1700 001:744 JLINK_Go() (0001ms, 0763ms total)
T1700 001:745 JLINK_IsHalted()  returns FALSE (0001ms, 0764ms total)
T1700 001:748 JLINK_IsHalted()  returns FALSE (0000ms, 0763ms total)
T1700 001:750 JLINK_IsHalted()  returns FALSE (0000ms, 0763ms total)
T1700 001:752 JLINK_IsHalted()  returns FALSE (0000ms, 0763ms total)
T1700 001:755 JLINK_IsHalted()  returns FALSE (0000ms, 0763ms total)
T1700 001:757 JLINK_IsHalted()  returns FALSE (0000ms, 0763ms total)
T1700 001:761 JLINK_IsHalted()  returns FALSE (0000ms, 0763ms total)
T1700 001:763 JLINK_IsHalted()  returns FALSE (0000ms, 0763ms total)
T1700 001:765 JLINK_IsHalted()  returns FALSE (0000ms, 0763ms total)
T1700 001:767 JLINK_IsHalted()  returns FALSE (0000ms, 0763ms total)
T1700 001:769 JLINK_IsHalted()  returns FALSE (0000ms, 0763ms total)
T1700 001:771 JLINK_IsHalted()  returns FALSE (0000ms, 0763ms total)
T1700 001:773 JLINK_IsHalted()  returns FALSE (0000ms, 0763ms total)
T1700 001:775 JLINK_IsHalted()  returns FALSE (0000ms, 0763ms total)
T1700 001:777 JLINK_IsHalted() -- CPU_ReadMem(2 bytes @ 0x20000000)  returns TRUE (0002ms, 0765ms total)
T1700 001:779 JLINK_ReadReg(R15 (PC))  returns 0x20000000 (0000ms, 0763ms total)
T1700 001:779 JLINK_ClrBPEx(BPHandle = 0x0000000D)  returns 0x00 (0000ms, 0763ms total)
T1700 001:779 JLINK_ReadReg(R0)  returns 0x00000000 (0000ms, 0763ms total)
T1700 001:781 JLINK_WriteMem(0x20000164, 0x0400 Bytes, ...) - Data: 02 46 00 20 9A 4B 58 68 20 F4 7C 10 42 EA 01 03 ... -- CPU_WriteMem(1024 bytes @ 0x20000164)  returns 0x400 (0003ms, 0766ms total)
T1700 001:784 JLINK_WriteReg(R0, 0x08002400)  returns 0x00 (0000ms, 0766ms total)
T1700 001:784 JLINK_WriteReg(R1, 0x00000400)  returns 0x00 (0000ms, 0766ms total)
T1700 001:784 JLINK_WriteReg(R2, 0x20000164)  returns 0x00 (0000ms, 0766ms total)
T1700 001:784 JLINK_WriteReg(R3, 0x00000000)  returns 0x00 (0000ms, 0766ms total)
T1700 001:784 JLINK_WriteReg(R4, 0x00000000)  returns 0x00 (0000ms, 0766ms total)
T1700 001:784 JLINK_WriteReg(R5, 0x00000000)  returns 0x00 (0000ms, 0766ms total)
T1700 001:784 JLINK_WriteReg(R6, 0x00000000)  returns 0x00 (0000ms, 0766ms total)
T1700 001:784 JLINK_WriteReg(R7, 0x00000000)  returns 0x00 (0000ms, 0766ms total)
T1700 001:785 JLINK_WriteReg(R8, 0x00000000)  returns 0x00 (0000ms, 0766ms total)
T1700 001:785 JLINK_WriteReg(R9, 0x20000160)  returns 0x00 (0000ms, 0766ms total)
T1700 001:785 JLINK_WriteReg(R10, 0x00000000)  returns 0x00 (0000ms, 0766ms total)
T1700 001:785 JLINK_WriteReg(R11, 0x00000000)  returns 0x00 (0000ms, 0766ms total)
T1700 001:785 JLINK_WriteReg(R12, 0x00000000)  returns 0x00 (0000ms, 0766ms total)
T1700 001:785 JLINK_WriteReg(R13 (SP), 0x20000800)  returns 0x00 (0000ms, 0766ms total)
T1700 001:785 JLINK_WriteReg(R14, 0x20000001)  returns 0x00 (0000ms, 0766ms total)
T1700 001:785 JLINK_WriteReg(R15 (PC), 0x200000F4)  returns 0x00 (0000ms, 0766ms total)
T1700 001:785 JLINK_WriteReg(XPSR, 0x01000000)  returns 0x00 (0000ms, 0766ms total)
T1700 001:785 JLINK_WriteReg(MSP, 0x20000800)  returns 0x00 (0000ms, 0766ms total)
T1700 001:785 JLINK_WriteReg(PSP, 0x20000800)  returns 0x00 (0001ms, 0767ms total)
T1700 001:786 JLINK_WriteReg(CFBP, 0x00000000)  returns 0x00 (0000ms, 0767ms total)
T1700 001:786 JLINK_SetBPEx(Addr = 0x20000000, Type = 0xFFFFFFF2)  returns 0x0000000E (0000ms, 0767ms total)
T1700 001:786 JLINK_Go() (0001ms, 0768ms total)
T1700 001:787 JLINK_IsHalted()  returns FALSE (0001ms, 0769ms total)
T1700 001:790 JLINK_IsHalted()  returns FALSE (0000ms, 0768ms total)
T1700 001:792 JLINK_IsHalted()  returns FALSE (0000ms, 0768ms total)
T1700 001:794 JLINK_IsHalted()  returns FALSE (0000ms, 0768ms total)
T1700 001:796 JLINK_IsHalted()  returns FALSE (0000ms, 0768ms total)
T1700 001:798 JLINK_IsHalted()  returns FALSE (0000ms, 0768ms total)
T1700 001:800 JLINK_IsHalted()  returns FALSE (0000ms, 0768ms total)
T1700 001:802 JLINK_IsHalted()  returns FALSE (0000ms, 0768ms total)
T1700 001:804 JLINK_IsHalted()  returns FALSE (0000ms, 0768ms total)
T1700 001:806 JLINK_IsHalted()  returns FALSE (0000ms, 0768ms total)
T1700 001:808 JLINK_IsHalted()  returns FALSE (0000ms, 0768ms total)
